T7A50 000:005.676   SEGGER J-Link V6.70e Log File
T7A50 000:005.880   DLL Compiled: Apr 17 2020 17:55:05
T7A50 000:005.887   Logging started @ 2021-03-22 00:29
T7A50 000:005.897 JLINK_SetWarnOutHandler(...)
T7A50 000:005.906 - 0.012ms
T7A50 000:005.916 JLINK_OpenEx(...)
T7A50 000:007.698   Firmware: J-Link V9 compiled Dec 13 2019 11:14:50
T7A50 000:007.934   Decompressing FW timestamp took 187 us
T7A50 000:015.370   Hardware: V9.30
T7A50 000:015.401   S/N: 269305263
T7A50 000:015.411   OEM: SEGGER-EDU
T7A50 000:015.421   Feature(s): FlashBP, GDB
T7A50 000:017.892   TELNET listener socket opened on port 19021
T7A50 000:018.082   WEBSRV Starting webserver
T7A50 000:018.267   WEBSRV Webserver running on local port 19080
T7A50 000:018.293 - 12.383ms returns "O.K."
T7A50 000:018.321 JLINK_GetEmuCaps()
T7A50 000:018.332 - 0.016ms returns 0xB9FF7BBF
T7A50 000:018.347 JLINK_TIF_GetAvailable(...)
T7A50 000:018.591 - 0.253ms
T7A50 000:018.611 JLINK_SetErrorOutHandler(...)
T7A50 000:018.618 - 0.010ms
T7A50 000:018.636 JLINK_ExecCommand("ProjectFile = "C:\work\ChipBot\sw\cam_test\MDK-ARM\JLinkSettings.ini"", ...). 
T7A50 000:028.181 - 9.562ms returns 0x00
T7A50 000:031.796 JLINK_ExecCommand("Device = STM32L052K8Tx", ...). 
T7A50 000:035.324   Device "STM32L052K8" selected.
T7A50 000:036.993 - 5.162ms returns 0x00
T7A50 000:037.020 JLINK_ExecCommand("DisableConnectionTimeout", ...). 
T7A50 000:037.034 - 0.007ms returns 0x01
T7A50 000:037.043 JLINK_GetHardwareVersion()
T7A50 000:037.051 - 0.011ms returns 0x16B48
T7A50 000:037.060 JLINK_GetDLLVersion()  returns 67005
T7A50 000:047.370 JLINK_GetDLLVersion()  returns 67005
T7A50 000:047.392 JLINK_GetCompileDateTime()
T7A50 000:047.399 - 0.010ms
T7A50 000:050.709 JLINK_GetFirmwareString(...)
T7A50 000:050.728 - 0.023ms
T7A50 000:054.350 JLINK_GetHardwareVersion()
T7A50 000:054.377 - 0.031ms returns 0x16B48
T7A50 000:071.021 JLINK_TIF_Select(JLINKARM_TIF_SWD)
T7A50 000:072.037 - 1.029ms returns 0x00
T7A50 000:072.075 JLINK_SetSpeed(5000)
T7A50 000:072.231 - 0.166ms
T7A50 000:072.250 JLINK_GetId()
T7A50 000:077.377   Found SW-DP with ID 0x0BC11477
T7A50 000:109.896   Found SW-DP with ID 0x0BC11477
T7A50 000:112.337   Old FW that does not support reading DPIDR via DAP jobs
T7A50 000:116.305   Unknown DP version. Assuming DPv0
T7A50 000:119.569   Scanning AP map to find all available APs
T7A50 000:124.090   AP[1]: Stopped AP scan as end of AP map has been reached
T7A50 000:127.254   AP[0]: AHB-AP (IDR: 0x04770031)
T7A50 000:131.876   Iterating through AP map to find AHB-AP to use
T7A50 000:136.096   AP[0]: Core found
T7A50 000:139.888   AP[0]: AHB-AP ROM base: 0xF0000000
T7A50 000:144.127   CPUID register: 0x410CC601. Implementer code: 0x41 (ARM)
T7A50 000:147.479   Found Cortex-M0 r0p1, Little endian.
T7A50 000:248.538    -- Max. mem block: 0x00010DF0
T7A50 000:248.595   CPU_ReadMem(4 bytes @ 0xE000EDF0)
T7A50 000:249.202   CPU_WriteMem(4 bytes @ 0xE000EDF0)
T7A50 000:249.665   CPU_ReadMem(4 bytes @ 0xE0002000)
T7A50 000:254.377   FPUnit: 4 code (BP) slots and 0 literal slots
T7A50 000:254.404   CPU_ReadMem(4 bytes @ 0xE000EDFC)
T7A50 000:254.762   CPU_WriteMem(4 bytes @ 0xE000EDFC)
T7A50 000:255.148   CPU_ReadMem(4 bytes @ 0xE0001000)
T7A50 000:255.504   CPU_WriteMem(4 bytes @ 0xE0001000)
T7A50 000:259.020   CoreSight components:
T7A50 000:262.426   ROMTbl[0] @ F0000000
T7A50 000:262.462   CPU_ReadMem(64 bytes @ 0xF0000000)
T7A50 000:263.147   CPU_ReadMem(32 bytes @ 0xE00FFFE0)
T7A50 000:267.022   ROMTbl[0][0]: E00FF000, CID: B105100D, PID: 000BB4C0 ROM Table
T7A50 000:270.227   ROMTbl[1] @ E00FF000
T7A50 000:270.253   CPU_ReadMem(64 bytes @ 0xE00FF000)
T7A50 000:270.875   CPU_ReadMem(32 bytes @ 0xE000EFE0)
T7A50 000:274.575   ROMTbl[1][0]: E000E000, CID: B105E00D, PID: 000BB008 SCS
T7A50 000:274.601   CPU_ReadMem(32 bytes @ 0xE0001FE0)
T7A50 000:278.678   ROMTbl[1][1]: E0001000, CID: B105E00D, PID: 000BB00A DWT
T7A50 000:278.705   CPU_ReadMem(32 bytes @ 0xE0002FE0)
T7A50 000:282.381   ROMTbl[1][2]: E0002000, CID: B105E00D, PID: 000BB00B FPB
T7A50 000:282.799 - 210.563ms   returns 0x0BC11477
T7A50 000:282.835 JLINK_GetDLLVersion()  returns 67005
T7A50 000:282.926 JLINK_CORE_GetFound()
T7A50 000:282.941 - 0.018ms returns 0x60000FF
T7A50 000:282.950 JLINK_GetDebugInfo(0x100 = JLINKARM_ROM_TABLE_ADDR_INDEX)
T7A50 000:282.972   Value=0xF0000000
T7A50 000:282.982 - 0.035ms returns 0x00
T7A50 000:286.501 JLINK_GetDebugInfo(0x100 = JLINKARM_ROM_TABLE_ADDR_INDEX)
T7A50 000:286.535   Value=0xF0000000
T7A50 000:286.545 - 0.047ms returns 0x00
T7A50 000:286.555 JLINK_GetDebugInfo(0x101 = JLINKARM_DEBUG_INFO_ETM_ADDR_INDEX)
T7A50 000:286.562   Value=0x00000000
T7A50 000:286.572 - 0.020ms returns 0x00
T7A50 000:286.592   JLINK_ReadMemEx(0xE0041FF0, 0x0010 Bytes, ..., Flags = 0x02000004)
T7A50 000:286.624   CPU_ReadMem(16 bytes @ 0xE0041FF0)
T7A50 000:287.022   Data:  00 00 00 00 00 00 00 00 00 00 00 00 00 00 00 00
T7A50 000:287.037 - 0.452ms returns 0x10
T7A50 000:287.048 JLINK_GetDebugInfo(0x102 = JLINKARM_DEBUG_INFO_MTB_ADDR_INDEX)
T7A50 000:287.056   Value=0x00000000
T7A50 000:287.065 - 0.020ms returns 0x00
T7A50 000:287.073 JLINK_GetDebugInfo(0x103 = JLINKARM_DEBUG_INFO_TPIU_ADDR_INDEX)
T7A50 000:287.080   Value=0x00000000
T7A50 000:287.090 - 0.019ms returns 0x00
T7A50 000:287.099   JLINK_ReadMemEx(0xE0040FF0, 0x0010 Bytes, ..., Flags = 0x02000004)
T7A50 000:287.114   CPU_ReadMem(16 bytes @ 0xE0040FF0)
T7A50 000:287.567   Data:  00 00 00 00 00 00 00 00 00 00 00 00 00 00 00 00
T7A50 000:287.581 - 0.486ms returns 0x10
T7A50 000:287.592 JLINK_GetDebugInfo(0x104 = JLINKARM_DEBUG_INFO_ITM_ADDR_INDEX)
T7A50 000:287.599   Value=0xE0000000
T7A50 000:287.609 - 0.020ms returns 0x00
T7A50 000:287.617 JLINK_GetDebugInfo(0x105 = JLINKARM_DEBUG_INFO_DWT_ADDR_INDEX)
T7A50 000:287.624   Value=0xE0001000
T7A50 000:287.633 - 0.019ms returns 0x00
T7A50 000:287.641 JLINK_GetDebugInfo(0x106 = JLINKARM_DEBUG_INFO_FPB_ADDR_INDEX)
T7A50 000:287.648   Value=0xE0002000
T7A50 000:287.658 - 0.019ms returns 0x00
T7A50 000:287.666 JLINK_GetDebugInfo(0x107 = JLINKARM_DEBUG_INFO_NVIC_ADDR_INDEX)
T7A50 000:287.673   Value=0xE000E000
T7A50 000:287.682 - 0.019ms returns 0x00
T7A50 000:287.690 JLINK_GetDebugInfo(0x10C = JLINKARM_DEBUG_INFO_DBG_ADDR_INDEX)
T7A50 000:287.697   Value=0xE000EDF0
T7A50 000:287.707 - 0.019ms returns 0x00
T7A50 000:287.715 JLINK_GetDebugInfo(0x01 = Unknown)
T7A50 000:287.739   Value=0x00000000
T7A50 000:287.749 - 0.037ms returns 0x00
T7A50 000:287.763 JLINK_ReadMemU32(0xE000ED00, 0x0001 Items, ...)
T7A50 000:287.776   CPU_ReadMem(4 bytes @ 0xE000ED00)
T7A50 000:288.149   Data:  01 C6 0C 41
T7A50 000:288.167    - CPUID
T7A50 000:288.177 - 0.417ms returns 1
T7A50 000:288.187 JLINK_GetDebugInfo(0x10F = JLINKARM_DEBUG_INFO_HAS_CORTEX_M_SECURITY_EXT_INDEX)
T7A50 000:288.195   Value=0x00000000
T7A50 000:288.204 - 0.020ms returns 0x00
T7A50 000:288.215 JLINK_SetResetType(JLINKARM_CM3_RESET_TYPE_NORMAL)
T7A50 000:288.222 - 0.010ms returns JLINKARM_CM3_RESET_TYPE_NORMAL
T7A50 000:288.231 JLINK_Reset()
T7A50 000:288.249   CPU is running
T7A50 000:288.261   CPU_WriteMem(4 bytes @ 0xE000EDF0)
T7A50 000:288.632   CPU is running
T7A50 000:288.648   CPU_WriteMem(4 bytes @ 0xE000EDFC)
T7A50 000:292.496   Reset: Halt core after reset via DEMCR.VC_CORERESET.
T7A50 000:298.349   Reset: Reset device via AIRCR.SYSRESETREQ.
T7A50 000:298.383   CPU is running
T7A50 000:298.398   CPU_WriteMem(4 bytes @ 0xE000ED0C)
T7A50 000:351.496   CPU_ReadMem(4 bytes @ 0xE000EDF0)
T7A50 000:351.931   CPU_ReadMem(4 bytes @ 0xE000EDF0)
T7A50 000:352.414   CPU is running
T7A50 000:352.437   CPU_WriteMem(4 bytes @ 0xE000EDF0)
T7A50 000:352.844   CPU is running
T7A50 000:352.867   CPU_WriteMem(4 bytes @ 0xE000EDFC)
T7A50 000:358.868   CPU_ReadMem(4 bytes @ 0xE000EDF0)
T7A50 000:361.532   CPU_WriteMem(4 bytes @ 0xE0002000)
T7A50 000:361.967   CPU_ReadMem(4 bytes @ 0xE000EDFC)
T7A50 000:362.394   CPU_ReadMem(4 bytes @ 0xE0001000)
T7A50 000:362.781   CPU_WriteMem(4 bytes @ 0xE0001000)
T7A50 000:363.214 - 74.994ms
T7A50 000:363.242 JLINK_Halt()
T7A50 000:363.257 - 0.018ms returns 0x00
T7A50 000:363.331 JLINK_ReadMemU32(0xE000EDF0, 0x0001 Items, ...)
T7A50 000:363.355   CPU_ReadMem(4 bytes @ 0xE000EDF0)
T7A50 000:363.737   Data:  03 00 03 00
T7A50 000:363.754    - DHCSR
T7A50 000:363.764 - 0.436ms returns 1
T7A50 000:363.775 JLINK_WriteU32(0xE000EDF0, 0xA05F0003)
T7A50 000:363.783    - DHCSR
T7A50 000:363.808   CPU_WriteMem(4 bytes @ 0xE000EDF0)
T7A50 000:364.212 - 0.446ms returns 0
T7A50 000:364.230 JLINK_WriteU32(0xE000EDFC, 0x01000000)
T7A50 000:364.239    - DEMCR
T7A50 000:364.255   CPU_WriteMem(4 bytes @ 0xE000EDFC)
T7A50 000:364.672 - 0.451ms returns 0
T7A50 000:380.873 JLINK_GetHWStatus(...)
T7A50 000:381.178 - 0.318ms returns 0x00
T7A50 000:391.995 JLINK_GetNumBPUnits(Type = 0xFFFFFF00)
T7A50 000:392.024 - 0.033ms returns 0x04
T7A50 000:392.034 JLINK_GetNumBPUnits(Type = 0xF0)
T7A50 000:392.041 - 0.010ms returns 0x2000
T7A50 000:392.049 JLINK_GetNumWPUnits()
T7A50 000:392.056 - 0.010ms returns 0x02
T7A50 000:401.312 JLINK_GetSpeed()
T7A50 000:401.332 - 0.024ms returns 0xFA0
T7A50 000:408.077 JLINK_ReadMemU32(0xE000E004, 0x0001 Items, ...)
T7A50 000:408.115   CPU_ReadMem(4 bytes @ 0xE000E004)
T7A50 000:408.496   Data:  00 00 00 00
T7A50 000:408.513 - 0.439ms returns 1
T7A50 000:408.529 JLINK_Halt()
T7A50 000:408.537 - 0.011ms returns 0x00
T7A50 000:408.546 JLINK_IsHalted()
T7A50 000:408.554 - 0.011ms returns TRUE
T7A50 000:411.853 JLINK_WriteMem(0x20000000, 0x0140 Bytes, ...)
T7A50 000:411.876   Data:  00 BE 0A E0 0D 78 2D 06 68 40 08 24 40 00 00 D3 ...
T7A50 000:412.229   CPU_WriteMem(320 bytes @ 0x20000000)
T7A50 000:414.204 - 2.364ms returns 0x140
T7A50 000:414.319 JLINK_WriteReg(R0, 0x08000000)
T7A50 000:414.345 - 0.032ms returns 0x00
T7A50 000:414.359 JLINK_WriteReg(R1, 0x01E84800)
T7A50 000:414.369 - 0.015ms returns 0x00
T7A50 000:414.381 JLINK_WriteReg(R2, 0x00000001)
T7A50 000:414.391 - 0.015ms returns 0x00
T7A50 000:414.403 JLINK_WriteReg(R3, 0x00000000)
T7A50 000:414.413 - 0.015ms returns 0x00
T7A50 000:414.425 JLINK_WriteReg(R4, 0x00000000)
T7A50 000:414.435 - 0.015ms returns 0x00
T7A50 000:414.447 JLINK_WriteReg(R5, 0x00000000)
T7A50 000:414.458 - 0.015ms returns 0x00
T7A50 000:414.469 JLINK_WriteReg(R6, 0x00000000)
T7A50 000:414.480 - 0.015ms returns 0x00
T7A50 000:414.492 JLINK_WriteReg(R7, 0x00000000)
T7A50 000:414.502 - 0.015ms returns 0x00
T7A50 000:414.514 JLINK_WriteReg(R8, 0x00000000)
T7A50 000:414.524 - 0.015ms returns 0x00
T7A50 000:414.536 JLINK_WriteReg(R9, 0x2000013C)
T7A50 000:414.546 - 0.015ms returns 0x00
T7A50 000:414.558 JLINK_WriteReg(R10, 0x00000000)
T7A50 000:414.569 - 0.015ms returns 0x00
T7A50 000:414.581 JLINK_WriteReg(R11, 0x00000000)
T7A50 000:414.591 - 0.015ms returns 0x00
T7A50 000:414.603 JLINK_WriteReg(R12, 0x00000000)
T7A50 000:414.613 - 0.015ms returns 0x00
T7A50 000:414.625 JLINK_WriteReg(R13 (SP), 0x20001000)
T7A50 000:414.637 - 0.016ms returns 0x00
T7A50 000:414.649 JLINK_WriteReg(R14, 0x20000001)
T7A50 000:414.659 - 0.015ms returns 0x00
T7A50 000:414.671 JLINK_WriteReg(R15 (PC), 0x20000020)
T7A50 000:414.682 - 0.015ms returns 0x00
T7A50 000:414.694 JLINK_WriteReg(XPSR, 0x01000000)
T7A50 000:414.704 - 0.015ms returns 0x00
T7A50 000:414.716 JLINK_WriteReg(MSP, 0x20001000)
T7A50 000:414.726 - 0.015ms returns 0x00
T7A50 000:414.738 JLINK_WriteReg(PSP, 0x20001000)
T7A50 000:414.748 - 0.015ms returns 0x00
T7A50 000:414.760 JLINK_WriteReg(CFBP, 0x00000000)
T7A50 000:414.771 - 0.015ms returns 0x00
T7A50 000:414.784   JLINK_SetBPEx(Addr = 0x20000000, Type = 0xFFFFFFF2)
T7A50 000:414.805   CPU_ReadMem(2 bytes @ 0x20000000)
T7A50 000:415.212 - 0.440ms returns 0x00000001
T7A50 000:415.234 JLINK_Go()
T7A50 000:415.249   CPU_WriteMem(2 bytes @ 0x20000000)
T7A50 000:415.685   CPU_ReadMem(4 bytes @ 0xE0001000)
T7A50 000:416.162   CPU_WriteMem(4 bytes @ 0xE0001000)
T7A50 000:416.185   CPU_WriteMem(4 bytes @ 0xE0002008)
T7A50 000:416.199   CPU_WriteMem(4 bytes @ 0xE000200C)
T7A50 000:416.213   CPU_WriteMem(4 bytes @ 0xE0002010)
T7A50 000:416.235   CPU_WriteMem(4 bytes @ 0xE0002014)
T7A50 000:417.326   CPU_WriteMem(4 bytes @ 0xE0001004)
T7A50 000:419.898 - 4.677ms
T7A50 000:419.922 JLINK_IsHalted()
T7A50 000:422.077   CPU_ReadMem(2 bytes @ 0x20000000)
T7A50 000:422.462 - 2.550ms returns TRUE
T7A50 000:422.482 JLINK_ReadReg(R15 (PC))
T7A50 000:422.494 - 0.015ms returns 0x20000000
T7A50 000:422.503 JLINK_ClrBPEx(BPHandle = 0x00000001)
T7A50 000:422.511 - 0.011ms returns 0x00
T7A50 000:422.519 JLINK_ReadReg(R0)
T7A50 000:422.527 - 0.010ms returns 0x00000000
T7A50 000:422.883 JLINK_WriteReg(R0, 0x08000000)
T7A50 000:422.907 - 0.030ms returns 0x00
T7A50 000:422.920 JLINK_WriteReg(R1, 0x00000080)
T7A50 000:422.931 - 0.015ms returns 0x00
T7A50 000:422.943 JLINK_WriteReg(R2, 0x00000000)
T7A50 000:422.958 - 0.022ms returns 0x00
T7A50 000:422.970 JLINK_WriteReg(R3, 0x00000000)
T7A50 000:422.978 - 0.011ms returns 0x00
T7A50 000:422.986 JLINK_WriteReg(R4, 0x00000000)
T7A50 000:422.993 - 0.010ms returns 0x00
T7A50 000:423.002 JLINK_WriteReg(R5, 0x00000000)
T7A50 000:423.009 - 0.010ms returns 0x00
T7A50 000:423.017 JLINK_WriteReg(R6, 0x00000000)
T7A50 000:423.024 - 0.010ms returns 0x00
T7A50 000:423.033 JLINK_WriteReg(R7, 0x00000000)
T7A50 000:423.040 - 0.010ms returns 0x00
T7A50 000:423.048 JLINK_WriteReg(R8, 0x00000000)
T7A50 000:423.055 - 0.010ms returns 0x00
T7A50 000:423.064 JLINK_WriteReg(R9, 0x2000013C)
T7A50 000:423.071 - 0.010ms returns 0x00
T7A50 000:423.079 JLINK_WriteReg(R10, 0x00000000)
T7A50 000:423.086 - 0.010ms returns 0x00
T7A50 000:423.094 JLINK_WriteReg(R11, 0x00000000)
T7A50 000:423.102 - 0.010ms returns 0x00
T7A50 000:423.110 JLINK_WriteReg(R12, 0x00000000)
T7A50 000:423.117 - 0.010ms returns 0x00
T7A50 000:423.126 JLINK_WriteReg(R13 (SP), 0x20001000)
T7A50 000:423.133 - 0.011ms returns 0x00
T7A50 000:423.142 JLINK_WriteReg(R14, 0x20000001)
T7A50 000:423.149 - 0.010ms returns 0x00
T7A50 000:423.157 JLINK_WriteReg(R15 (PC), 0x200000B0)
T7A50 000:423.164 - 0.010ms returns 0x00
T7A50 000:423.173 JLINK_WriteReg(XPSR, 0x01000000)
T7A50 000:423.180 - 0.010ms returns 0x00
T7A50 000:423.188 JLINK_WriteReg(MSP, 0x20001000)
T7A50 000:423.195 - 0.010ms returns 0x00
T7A50 000:423.204 JLINK_WriteReg(PSP, 0x20001000)
T7A50 000:423.211 - 0.010ms returns 0x00
T7A50 000:423.219 JLINK_WriteReg(CFBP, 0x00000000)
T7A50 000:423.226 - 0.010ms returns 0x00
T7A50 000:423.236   JLINK_SetBPEx(Addr = 0x20000000, Type = 0xFFFFFFF2)
T7A50 000:423.247 - 0.015ms returns 0x00000002
T7A50 000:423.256 JLINK_Go()
T7A50 000:423.269   CPU_ReadMem(4 bytes @ 0xE0001000)
T7A50 000:423.626   CPU_WriteMem(4 bytes @ 0xE0001000)
T7A50 000:426.590 - 3.343ms
T7A50 000:426.606 JLINK_IsHalted()
T7A50 000:428.673   CPU_ReadMem(2 bytes @ 0x20000000)
T7A50 000:429.099 - 2.505ms returns TRUE
T7A50 000:429.122 JLINK_ReadReg(R15 (PC))
T7A50 000:429.136 - 0.019ms returns 0x20000000
T7A50 000:429.149 JLINK_ClrBPEx(BPHandle = 0x00000002)
T7A50 000:429.161 - 0.016ms returns 0x00
T7A50 000:429.173 JLINK_ReadReg(R0)
T7A50 000:429.193 - 0.025ms returns 0x00000001
T7A50 000:429.210 JLINK_WriteReg(R0, 0x08000000)
T7A50 000:429.221 - 0.016ms returns 0x00
T7A50 000:429.233 JLINK_WriteReg(R1, 0x00000080)
T7A50 000:429.244 - 0.015ms returns 0x00
T7A50 000:429.256 JLINK_WriteReg(R2, 0x00000000)
T7A50 000:429.266 - 0.015ms returns 0x00
T7A50 000:429.278 JLINK_WriteReg(R3, 0x00000000)
T7A50 000:429.288 - 0.015ms returns 0x00
T7A50 000:429.300 JLINK_WriteReg(R4, 0x00000000)
T7A50 000:429.310 - 0.015ms returns 0x00
T7A50 000:429.322 JLINK_WriteReg(R5, 0x00000000)
T7A50 000:429.333 - 0.015ms returns 0x00
T7A50 000:429.345 JLINK_WriteReg(R6, 0x00000000)
T7A50 000:429.355 - 0.015ms returns 0x00
T7A50 000:429.367 JLINK_WriteReg(R7, 0x00000000)
T7A50 000:429.378 - 0.015ms returns 0x00
T7A50 000:429.390 JLINK_WriteReg(R8, 0x00000000)
T7A50 000:429.400 - 0.015ms returns 0x00
T7A50 000:429.412 JLINK_WriteReg(R9, 0x2000013C)
T7A50 000:429.423 - 0.015ms returns 0x00
T7A50 000:429.434 JLINK_WriteReg(R10, 0x00000000)
T7A50 000:429.445 - 0.088ms returns 0x00
T7A50 000:429.536 JLINK_WriteReg(R11, 0x00000000)
T7A50 000:429.548 - 0.017ms returns 0x00
T7A50 000:429.560 JLINK_WriteReg(R12, 0x00000000)
T7A50 000:429.571 - 0.015ms returns 0x00
T7A50 000:429.583 JLINK_WriteReg(R13 (SP), 0x20001000)
T7A50 000:429.594 - 0.015ms returns 0x00
T7A50 000:429.606 JLINK_WriteReg(R14, 0x20000001)
T7A50 000:429.616 - 0.015ms returns 0x00
T7A50 000:429.628 JLINK_WriteReg(R15 (PC), 0x2000007A)
T7A50 000:429.638 - 0.015ms returns 0x00
T7A50 000:429.650 JLINK_WriteReg(XPSR, 0x01000000)
T7A50 000:429.661 - 0.015ms returns 0x00
T7A50 000:429.673 JLINK_WriteReg(MSP, 0x20001000)
T7A50 000:429.683 - 0.015ms returns 0x00
T7A50 000:429.695 JLINK_WriteReg(PSP, 0x20001000)
T7A50 000:429.705 - 0.015ms returns 0x00
T7A50 000:429.717 JLINK_WriteReg(CFBP, 0x00000000)
T7A50 000:429.727 - 0.015ms returns 0x00
T7A50 000:429.740   JLINK_SetBPEx(Addr = 0x20000000, Type = 0xFFFFFFF2)
T7A50 000:429.756 - 0.021ms returns 0x00000003
T7A50 000:429.768 JLINK_Go()
T7A50 000:429.786   CPU_ReadMem(4 bytes @ 0xE0001000)
T7A50 000:430.204   CPU_WriteMem(4 bytes @ 0xE0001000)
T7A50 000:432.927 - 3.178ms
T7A50 000:432.959 JLINK_IsHalted()
T7A50 000:433.295 - 0.350ms returns FALSE
T7A50 000:448.875 JLINK_IsHalted()
T7A50 000:451.057   CPU_ReadMem(2 bytes @ 0x20000000)
T7A50 000:451.427 - 2.560ms returns TRUE
T7A50 000:451.443 JLINK_ReadReg(R15 (PC))
T7A50 000:451.455 - 0.015ms returns 0x20000000
T7A50 000:451.464 JLINK_ClrBPEx(BPHandle = 0x00000003)
T7A50 000:451.472 - 0.011ms returns 0x00
T7A50 000:451.481 JLINK_ReadReg(R0)
T7A50 000:451.488 - 0.011ms returns 0x00000000
T7A50 000:452.099 JLINK_WriteReg(R0, 0x08000080)
T7A50 000:452.115 - 0.019ms returns 0x00
T7A50 000:452.123 JLINK_WriteReg(R1, 0x00000080)
T7A50 000:452.131 - 0.010ms returns 0x00
T7A50 000:452.139 JLINK_WriteReg(R2, 0x00000000)
T7A50 000:452.146 - 0.010ms returns 0x00
T7A50 000:452.154 JLINK_WriteReg(R3, 0x00000000)
T7A50 000:452.162 - 0.010ms returns 0x00
T7A50 000:452.170 JLINK_WriteReg(R4, 0x00000000)
T7A50 000:452.177 - 0.010ms returns 0x00
T7A50 000:452.185 JLINK_WriteReg(R5, 0x00000000)
T7A50 000:452.192 - 0.010ms returns 0x00
T7A50 000:452.200 JLINK_WriteReg(R6, 0x00000000)
T7A50 000:452.208 - 0.010ms returns 0x00
T7A50 000:452.216 JLINK_WriteReg(R7, 0x00000000)
T7A50 000:452.223 - 0.010ms returns 0x00
T7A50 000:452.231 JLINK_WriteReg(R8, 0x00000000)
T7A50 000:452.238 - 0.010ms returns 0x00
T7A50 000:452.247 JLINK_WriteReg(R9, 0x2000013C)
T7A50 000:452.254 - 0.010ms returns 0x00
T7A50 000:452.262 JLINK_WriteReg(R10, 0x00000000)
T7A50 000:452.269 - 0.010ms returns 0x00
T7A50 000:452.278 JLINK_WriteReg(R11, 0x00000000)
T7A50 000:452.285 - 0.010ms returns 0x00
T7A50 000:452.293 JLINK_WriteReg(R12, 0x00000000)
T7A50 000:452.301 - 0.010ms returns 0x00
T7A50 000:452.309 JLINK_WriteReg(R13 (SP), 0x20001000)
T7A50 000:452.317 - 0.011ms returns 0x00
T7A50 000:452.325 JLINK_WriteReg(R14, 0x20000001)
T7A50 000:452.332 - 0.010ms returns 0x00
T7A50 000:452.340 JLINK_WriteReg(R15 (PC), 0x200000B0)
T7A50 000:452.348 - 0.010ms returns 0x00
T7A50 000:452.356 JLINK_WriteReg(XPSR, 0x01000000)
T7A50 000:452.363 - 0.010ms returns 0x00
T7A50 000:452.372 JLINK_WriteReg(MSP, 0x20001000)
T7A50 000:452.379 - 0.010ms returns 0x00
T7A50 000:452.387 JLINK_WriteReg(PSP, 0x20001000)
T7A50 000:452.394 - 0.010ms returns 0x00
T7A50 000:452.403 JLINK_WriteReg(CFBP, 0x00000000)
T7A50 000:452.410 - 0.010ms returns 0x00
T7A50 000:452.419   JLINK_SetBPEx(Addr = 0x20000000, Type = 0xFFFFFFF2)
T7A50 000:452.430 - 0.015ms returns 0x00000004
T7A50 000:452.439 JLINK_Go()
T7A50 000:452.453   CPU_ReadMem(4 bytes @ 0xE0001000)
T7A50 000:452.817   CPU_WriteMem(4 bytes @ 0xE0001000)
T7A50 000:455.280 - 2.858ms
T7A50 000:455.307 JLINK_IsHalted()
T7A50 000:457.323   CPU_ReadMem(2 bytes @ 0x20000000)
T7A50 000:457.681 - 2.382ms returns TRUE
T7A50 000:457.698 JLINK_ReadReg(R15 (PC))
T7A50 000:457.708 - 0.013ms returns 0x20000000
T7A50 000:457.717 JLINK_ClrBPEx(BPHandle = 0x00000004)
T7A50 000:457.725 - 0.077ms returns 0x00
T7A50 000:457.805 JLINK_ReadReg(R0)
T7A50 000:457.814 - 0.012ms returns 0x00000001
T7A50 000:457.825 JLINK_WriteReg(R0, 0x08000080)
T7A50 000:457.833 - 0.011ms returns 0x00
T7A50 000:457.842 JLINK_WriteReg(R1, 0x00000080)
T7A50 000:457.849 - 0.010ms returns 0x00
T7A50 000:457.860 JLINK_WriteReg(R2, 0x00000000)
T7A50 000:457.871 - 0.022ms returns 0x00
T7A50 000:457.892 JLINK_WriteReg(R3, 0x00000000)
T7A50 000:457.901 - 0.012ms returns 0x00
T7A50 000:457.909 JLINK_WriteReg(R4, 0x00000000)
T7A50 000:457.917 - 0.010ms returns 0x00
T7A50 000:457.925 JLINK_WriteReg(R5, 0x00000000)
T7A50 000:457.932 - 0.010ms returns 0x00
T7A50 000:457.940 JLINK_WriteReg(R6, 0x00000000)
T7A50 000:457.947 - 0.010ms returns 0x00
T7A50 000:457.956 JLINK_WriteReg(R7, 0x00000000)
T7A50 000:457.963 - 0.010ms returns 0x00
T7A50 000:457.971 JLINK_WriteReg(R8, 0x00000000)
T7A50 000:457.978 - 0.010ms returns 0x00
T7A50 000:457.987 JLINK_WriteReg(R9, 0x2000013C)
T7A50 000:457.994 - 0.010ms returns 0x00
T7A50 000:458.002 JLINK_WriteReg(R10, 0x00000000)
T7A50 000:458.009 - 0.010ms returns 0x00
T7A50 000:458.018 JLINK_WriteReg(R11, 0x00000000)
T7A50 000:458.025 - 0.010ms returns 0x00
T7A50 000:458.033 JLINK_WriteReg(R12, 0x00000000)
T7A50 000:458.041 - 0.010ms returns 0x00
T7A50 000:458.049 JLINK_WriteReg(R13 (SP), 0x20001000)
T7A50 000:458.057 - 0.011ms returns 0x00
T7A50 000:458.065 JLINK_WriteReg(R14, 0x20000001)
T7A50 000:458.072 - 0.010ms returns 0x00
T7A50 000:458.081 JLINK_WriteReg(R15 (PC), 0x2000007A)
T7A50 000:458.088 - 0.010ms returns 0x00
T7A50 000:458.096 JLINK_WriteReg(XPSR, 0x01000000)
T7A50 000:458.104 - 0.010ms returns 0x00
T7A50 000:458.112 JLINK_WriteReg(MSP, 0x20001000)
T7A50 000:458.119 - 0.010ms returns 0x00
T7A50 000:458.127 JLINK_WriteReg(PSP, 0x20001000)
T7A50 000:458.135 - 0.010ms returns 0x00
T7A50 000:458.143 JLINK_WriteReg(CFBP, 0x00000000)
T7A50 000:458.150 - 0.010ms returns 0x00
T7A50 000:458.159   JLINK_SetBPEx(Addr = 0x20000000, Type = 0xFFFFFFF2)
T7A50 000:458.171 - 0.015ms returns 0x00000005
T7A50 000:458.179 JLINK_Go()
T7A50 000:458.193   CPU_ReadMem(4 bytes @ 0xE0001000)
T7A50 000:458.550   CPU_WriteMem(4 bytes @ 0xE0001000)
T7A50 000:461.154 - 2.986ms
T7A50 000:461.174 JLINK_IsHalted()
T7A50 000:461.498 - 0.332ms returns FALSE
T7A50 000:464.872 JLINK_IsHalted()
T7A50 000:467.015   CPU_ReadMem(2 bytes @ 0x20000000)
T7A50 000:467.373 - 2.509ms returns TRUE
T7A50 000:467.394 JLINK_ReadReg(R15 (PC))
T7A50 000:467.404 - 0.013ms returns 0x20000000
T7A50 000:467.413 JLINK_ClrBPEx(BPHandle = 0x00000005)
T7A50 000:467.421 - 0.011ms returns 0x00
T7A50 000:467.475 JLINK_ReadReg(R0)
T7A50 000:467.489 - 0.017ms returns 0x00000000
T7A50 000:468.216 JLINK_WriteReg(R0, 0x08000100)
T7A50 000:468.237 - 0.027ms returns 0x00
T7A50 000:468.250 JLINK_WriteReg(R1, 0x00000080)
T7A50 000:468.261 - 0.015ms returns 0x00
T7A50 000:468.273 JLINK_WriteReg(R2, 0x00000000)
T7A50 000:468.283 - 0.015ms returns 0x00
T7A50 000:468.295 JLINK_WriteReg(R3, 0x00000000)
T7A50 000:468.305 - 0.015ms returns 0x00
T7A50 000:468.317 JLINK_WriteReg(R4, 0x00000000)
T7A50 000:468.327 - 0.015ms returns 0x00
T7A50 000:468.339 JLINK_WriteReg(R5, 0x00000000)
T7A50 000:468.349 - 0.015ms returns 0x00
T7A50 000:468.361 JLINK_WriteReg(R6, 0x00000000)
T7A50 000:468.371 - 0.015ms returns 0x00
T7A50 000:468.383 JLINK_WriteReg(R7, 0x00000000)
T7A50 000:468.394 - 0.015ms returns 0x00
T7A50 000:468.405 JLINK_WriteReg(R8, 0x00000000)
T7A50 000:468.416 - 0.015ms returns 0x00
T7A50 000:468.428 JLINK_WriteReg(R9, 0x2000013C)
T7A50 000:468.438 - 0.015ms returns 0x00
T7A50 000:468.450 JLINK_WriteReg(R10, 0x00000000)
T7A50 000:468.461 - 0.015ms returns 0x00
T7A50 000:468.473 JLINK_WriteReg(R11, 0x00000000)
T7A50 000:468.483 - 0.015ms returns 0x00
T7A50 000:468.495 JLINK_WriteReg(R12, 0x00000000)
T7A50 000:468.505 - 0.015ms returns 0x00
T7A50 000:468.517 JLINK_WriteReg(R13 (SP), 0x20001000)
T7A50 000:468.528 - 0.016ms returns 0x00
T7A50 000:468.540 JLINK_WriteReg(R14, 0x20000001)
T7A50 000:468.555 - 0.022ms returns 0x00
T7A50 000:468.569 JLINK_WriteReg(R15 (PC), 0x200000B0)
T7A50 000:468.580 - 0.015ms returns 0x00
T7A50 000:468.592 JLINK_WriteReg(XPSR, 0x01000000)
T7A50 000:468.602 - 0.015ms returns 0x00
T7A50 000:468.614 JLINK_WriteReg(MSP, 0x20001000)
T7A50 000:468.624 - 0.015ms returns 0x00
T7A50 000:468.636 JLINK_WriteReg(PSP, 0x20001000)
T7A50 000:468.646 - 0.015ms returns 0x00
T7A50 000:468.658 JLINK_WriteReg(CFBP, 0x00000000)
T7A50 000:468.669 - 0.015ms returns 0x00
T7A50 000:468.682   JLINK_SetBPEx(Addr = 0x20000000, Type = 0xFFFFFFF2)
T7A50 000:468.698 - 0.021ms returns 0x00000006
T7A50 000:468.710 JLINK_Go()
T7A50 000:468.728   CPU_ReadMem(4 bytes @ 0xE0001000)
T7A50 000:469.154   CPU_WriteMem(4 bytes @ 0xE0001000)
T7A50 000:471.635 - 2.943ms
T7A50 000:471.665 JLINK_IsHalted()
T7A50 000:473.805   CPU_ReadMem(2 bytes @ 0x20000000)
T7A50 000:474.150 - 2.495ms returns TRUE
T7A50 000:474.169 JLINK_ReadReg(R15 (PC))
T7A50 000:474.180 - 0.014ms returns 0x20000000
T7A50 000:474.189 JLINK_ClrBPEx(BPHandle = 0x00000006)
T7A50 000:474.197 - 0.011ms returns 0x00
T7A50 000:474.205 JLINK_ReadReg(R0)
T7A50 000:474.213 - 0.010ms returns 0x00000001
T7A50 000:474.224 JLINK_WriteReg(R0, 0x08000100)
T7A50 000:474.232 - 0.011ms returns 0x00
T7A50 000:474.240 JLINK_WriteReg(R1, 0x00000080)
T7A50 000:474.247 - 0.010ms returns 0x00
T7A50 000:474.256 JLINK_WriteReg(R2, 0x00000000)
T7A50 000:474.263 - 0.010ms returns 0x00
T7A50 000:474.271 JLINK_WriteReg(R3, 0x00000000)
T7A50 000:474.278 - 0.010ms returns 0x00
T7A50 000:474.287 JLINK_WriteReg(R4, 0x00000000)
T7A50 000:474.294 - 0.010ms returns 0x00
T7A50 000:474.302 JLINK_WriteReg(R5, 0x00000000)
T7A50 000:474.309 - 0.010ms returns 0x00
T7A50 000:474.318 JLINK_WriteReg(R6, 0x00000000)
T7A50 000:474.325 - 0.010ms returns 0x00
T7A50 000:474.333 JLINK_WriteReg(R7, 0x00000000)
T7A50 000:474.341 - 0.010ms returns 0x00
T7A50 000:474.349 JLINK_WriteReg(R8, 0x00000000)
T7A50 000:474.356 - 0.010ms returns 0x00
T7A50 000:474.365 JLINK_WriteReg(R9, 0x2000013C)
T7A50 000:474.372 - 0.010ms returns 0x00
T7A50 000:474.380 JLINK_WriteReg(R10, 0x00000000)
T7A50 000:474.387 - 0.010ms returns 0x00
T7A50 000:474.396 JLINK_WriteReg(R11, 0x00000000)
T7A50 000:474.403 - 0.010ms returns 0x00
T7A50 000:474.411 JLINK_WriteReg(R12, 0x00000000)
T7A50 000:474.418 - 0.010ms returns 0x00
T7A50 000:474.427 JLINK_WriteReg(R13 (SP), 0x20001000)
T7A50 000:474.434 - 0.011ms returns 0x00
T7A50 000:474.443 JLINK_WriteReg(R14, 0x20000001)
T7A50 000:474.450 - 0.010ms returns 0x00
T7A50 000:474.458 JLINK_WriteReg(R15 (PC), 0x2000007A)
T7A50 000:474.465 - 0.010ms returns 0x00
T7A50 000:474.474 JLINK_WriteReg(XPSR, 0x01000000)
T7A50 000:474.481 - 0.010ms returns 0x00
T7A50 000:474.489 JLINK_WriteReg(MSP, 0x20001000)
T7A50 000:474.496 - 0.010ms returns 0x00
T7A50 000:474.505 JLINK_WriteReg(PSP, 0x20001000)
T7A50 000:474.512 - 0.010ms returns 0x00
T7A50 000:474.520 JLINK_WriteReg(CFBP, 0x00000000)
T7A50 000:474.527 - 0.010ms returns 0x00
T7A50 000:474.536   JLINK_SetBPEx(Addr = 0x20000000, Type = 0xFFFFFFF2)
T7A50 000:474.547 - 0.014ms returns 0x00000007
T7A50 000:474.555 JLINK_Go()
T7A50 000:474.568   CPU_ReadMem(4 bytes @ 0xE0001000)
T7A50 000:474.922   CPU_WriteMem(4 bytes @ 0xE0001000)
T7A50 000:477.490 - 2.948ms
T7A50 000:477.512 JLINK_IsHalted()
T7A50 000:477.912 - 0.410ms returns FALSE
T7A50 000:479.884 JLINK_IsHalted()
T7A50 000:480.320 - 0.446ms returns FALSE
T7A50 000:482.882 JLINK_IsHalted()
T7A50 000:485.054   CPU_ReadMem(2 bytes @ 0x20000000)
T7A50 000:485.900 - 3.031ms returns TRUE
T7A50 000:485.926 JLINK_ReadReg(R15 (PC))
T7A50 000:485.940 - 0.020ms returns 0x20000000
T7A50 000:485.959 JLINK_ClrBPEx(BPHandle = 0x00000007)
T7A50 000:485.971 - 0.015ms returns 0x00
T7A50 000:485.980 JLINK_ReadReg(R0)
T7A50 000:485.988 - 0.011ms returns 0x00000000
T7A50 000:486.623 JLINK_WriteReg(R0, 0x08000180)
T7A50 000:486.640 - 0.021ms returns 0x00
T7A50 000:486.649 JLINK_WriteReg(R1, 0x00000080)
T7A50 000:486.657 - 0.015ms returns 0x00
T7A50 000:486.674 JLINK_WriteReg(R2, 0x00000000)
T7A50 000:486.681 - 0.010ms returns 0x00
T7A50 000:486.689 JLINK_WriteReg(R3, 0x00000000)
T7A50 000:486.697 - 0.010ms returns 0x00
T7A50 000:486.705 JLINK_WriteReg(R4, 0x00000000)
T7A50 000:486.712 - 0.010ms returns 0x00
T7A50 000:486.720 JLINK_WriteReg(R5, 0x00000000)
T7A50 000:486.727 - 0.010ms returns 0x00
T7A50 000:486.736 JLINK_WriteReg(R6, 0x00000000)
T7A50 000:486.743 - 0.010ms returns 0x00
T7A50 000:486.751 JLINK_WriteReg(R7, 0x00000000)
T7A50 000:486.758 - 0.010ms returns 0x00
T7A50 000:486.767 JLINK_WriteReg(R8, 0x00000000)
T7A50 000:486.774 - 0.010ms returns 0x00
T7A50 000:486.782 JLINK_WriteReg(R9, 0x2000013C)
T7A50 000:486.789 - 0.010ms returns 0x00
T7A50 000:486.798 JLINK_WriteReg(R10, 0x00000000)
T7A50 000:486.805 - 0.010ms returns 0x00
T7A50 000:486.813 JLINK_WriteReg(R11, 0x00000000)
T7A50 000:486.820 - 0.010ms returns 0x00
T7A50 000:486.829 JLINK_WriteReg(R12, 0x00000000)
T7A50 000:486.837 - 0.014ms returns 0x00
T7A50 000:486.854 JLINK_WriteReg(R13 (SP), 0x20001000)
T7A50 000:486.869 - 0.024ms returns 0x00
T7A50 000:486.887 JLINK_WriteReg(R14, 0x20000001)
T7A50 000:486.903 - 0.019ms returns 0x00
T7A50 000:486.913 JLINK_WriteReg(R15 (PC), 0x200000B0)
T7A50 000:486.920 - 0.010ms returns 0x00
T7A50 000:486.929 JLINK_WriteReg(XPSR, 0x01000000)
T7A50 000:486.936 - 0.010ms returns 0x00
T7A50 000:486.944 JLINK_WriteReg(MSP, 0x20001000)
T7A50 000:486.951 - 0.010ms returns 0x00
T7A50 000:486.960 JLINK_WriteReg(PSP, 0x20001000)
T7A50 000:486.967 - 0.010ms returns 0x00
T7A50 000:486.975 JLINK_WriteReg(CFBP, 0x00000000)
T7A50 000:486.982 - 0.010ms returns 0x00
T7A50 000:486.992   JLINK_SetBPEx(Addr = 0x20000000, Type = 0xFFFFFFF2)
T7A50 000:487.004 - 0.016ms returns 0x00000008
T7A50 000:487.012 JLINK_Go()
T7A50 000:487.029   CPU_ReadMem(4 bytes @ 0xE0001000)
T7A50 000:487.423   CPU_WriteMem(4 bytes @ 0xE0001000)
T7A50 000:489.914 - 2.913ms
T7A50 000:489.935 JLINK_IsHalted()
T7A50 000:492.069   CPU_ReadMem(2 bytes @ 0x20000000)
T7A50 000:492.460 - 2.536ms returns TRUE
T7A50 000:492.484 JLINK_ReadReg(R15 (PC))
T7A50 000:492.495 - 0.015ms returns 0x20000000
T7A50 000:492.569 JLINK_ClrBPEx(BPHandle = 0x00000008)
T7A50 000:492.592 - 0.027ms returns 0x00
T7A50 000:492.604 JLINK_ReadReg(R0)
T7A50 000:492.612 - 0.012ms returns 0x00000001
T7A50 000:492.625 JLINK_WriteReg(R0, 0x08000180)
T7A50 000:492.634 - 0.012ms returns 0x00
T7A50 000:492.643 JLINK_WriteReg(R1, 0x00000080)
T7A50 000:492.650 - 0.010ms returns 0x00
T7A50 000:492.658 JLINK_WriteReg(R2, 0x00000000)
T7A50 000:492.665 - 0.010ms returns 0x00
T7A50 000:492.674 JLINK_WriteReg(R3, 0x00000000)
T7A50 000:492.681 - 0.010ms returns 0x00
T7A50 000:492.689 JLINK_WriteReg(R4, 0x00000000)
T7A50 000:492.696 - 0.010ms returns 0x00
T7A50 000:492.705 JLINK_WriteReg(R5, 0x00000000)
T7A50 000:492.712 - 0.010ms returns 0x00
T7A50 000:492.720 JLINK_WriteReg(R6, 0x00000000)
T7A50 000:492.728 - 0.010ms returns 0x00
T7A50 000:492.736 JLINK_WriteReg(R7, 0x00000000)
T7A50 000:492.743 - 0.010ms returns 0x00
T7A50 000:492.751 JLINK_WriteReg(R8, 0x00000000)
T7A50 000:492.759 - 0.010ms returns 0x00
T7A50 000:492.767 JLINK_WriteReg(R9, 0x2000013C)
T7A50 000:492.774 - 0.010ms returns 0x00
T7A50 000:492.792 JLINK_WriteReg(R10, 0x00000000)
T7A50 000:492.799 - 0.010ms returns 0x00
T7A50 000:492.808 JLINK_WriteReg(R11, 0x00000000)
T7A50 000:492.815 - 0.010ms returns 0x00
T7A50 000:492.823 JLINK_WriteReg(R12, 0x00000000)
T7A50 000:492.830 - 0.032ms returns 0x00
T7A50 000:492.869 JLINK_WriteReg(R13 (SP), 0x20001000)
T7A50 000:492.886 - 0.027ms returns 0x00
T7A50 000:492.911 JLINK_WriteReg(R14, 0x20000001)
T7A50 000:492.937 - 0.037ms returns 0x00
T7A50 000:492.960 JLINK_WriteReg(R15 (PC), 0x2000007A)
T7A50 000:492.974 - 0.019ms returns 0x00
T7A50 000:492.984 JLINK_WriteReg(XPSR, 0x01000000)
T7A50 000:492.992 - 0.011ms returns 0x00
T7A50 000:493.000 JLINK_WriteReg(MSP, 0x20001000)
T7A50 000:493.007 - 0.010ms returns 0x00
T7A50 000:493.016 JLINK_WriteReg(PSP, 0x20001000)
T7A50 000:493.033 - 0.020ms returns 0x00
T7A50 000:493.041 JLINK_WriteReg(CFBP, 0x00000000)
T7A50 000:493.049 - 0.010ms returns 0x00
T7A50 000:493.058   JLINK_SetBPEx(Addr = 0x20000000, Type = 0xFFFFFFF2)
T7A50 000:493.070 - 0.016ms returns 0x00000009
T7A50 000:493.078 JLINK_Go()
T7A50 000:493.095   CPU_ReadMem(4 bytes @ 0xE0001000)
T7A50 000:493.455   CPU_WriteMem(4 bytes @ 0xE0001000)
T7A50 000:496.172 - 3.110ms
T7A50 000:496.201 JLINK_IsHalted()
T7A50 000:496.627 - 0.438ms returns FALSE
T7A50 000:497.913 JLINK_IsHalted()
T7A50 000:498.333 - 0.432ms returns FALSE
T7A50 000:499.911 JLINK_IsHalted()
T7A50 000:502.102   CPU_ReadMem(2 bytes @ 0x20000000)
T7A50 000:502.543 - 2.644ms returns TRUE
T7A50 000:502.566 JLINK_ReadReg(R15 (PC))
T7A50 000:502.580 - 0.019ms returns 0x20000000
T7A50 000:502.593 JLINK_ClrBPEx(BPHandle = 0x00000009)
T7A50 000:502.603 - 0.016ms returns 0x00
T7A50 000:502.616 JLINK_ReadReg(R0)
T7A50 000:502.626 - 0.015ms returns 0x00000000
T7A50 000:503.569 JLINK_WriteReg(R0, 0x08000200)
T7A50 000:503.586 - 0.021ms returns 0x00
T7A50 000:503.595 JLINK_WriteReg(R1, 0x00000080)
T7A50 000:503.602 - 0.010ms returns 0x00
T7A50 000:503.611 JLINK_WriteReg(R2, 0x00000000)
T7A50 000:503.618 - 0.010ms returns 0x00
T7A50 000:503.626 JLINK_WriteReg(R3, 0x00000000)
T7A50 000:503.633 - 0.010ms returns 0x00
T7A50 000:503.642 JLINK_WriteReg(R4, 0x00000000)
T7A50 000:503.649 - 0.010ms returns 0x00
T7A50 000:503.657 JLINK_WriteReg(R5, 0x00000000)
T7A50 000:503.664 - 0.010ms returns 0x00
T7A50 000:503.672 JLINK_WriteReg(R6, 0x00000000)
T7A50 000:503.680 - 0.010ms returns 0x00
T7A50 000:503.688 JLINK_WriteReg(R7, 0x00000000)
T7A50 000:503.695 - 0.010ms returns 0x00
T7A50 000:503.703 JLINK_WriteReg(R8, 0x00000000)
T7A50 000:503.711 - 0.010ms returns 0x00
T7A50 000:503.719 JLINK_WriteReg(R9, 0x2000013C)
T7A50 000:503.726 - 0.010ms returns 0x00
T7A50 000:503.735 JLINK_WriteReg(R10, 0x00000000)
T7A50 000:503.742 - 0.010ms returns 0x00
T7A50 000:503.750 JLINK_WriteReg(R11, 0x00000000)
T7A50 000:503.758 - 0.010ms returns 0x00
T7A50 000:503.766 JLINK_WriteReg(R12, 0x00000000)
T7A50 000:503.773 - 0.010ms returns 0x00
T7A50 000:503.782 JLINK_WriteReg(R13 (SP), 0x20001000)
T7A50 000:503.790 - 0.011ms returns 0x00
T7A50 000:503.798 JLINK_WriteReg(R14, 0x20000001)
T7A50 000:503.805 - 0.010ms returns 0x00
T7A50 000:503.814 JLINK_WriteReg(R15 (PC), 0x200000B0)
T7A50 000:503.821 - 0.010ms returns 0x00
T7A50 000:503.829 JLINK_WriteReg(XPSR, 0x01000000)
T7A50 000:503.837 - 0.010ms returns 0x00
T7A50 000:503.848 JLINK_WriteReg(MSP, 0x20001000)
T7A50 000:503.861 - 0.023ms returns 0x00
T7A50 000:503.883 JLINK_WriteReg(PSP, 0x20001000)
T7A50 000:503.892 - 0.012ms returns 0x00
T7A50 000:503.901 JLINK_WriteReg(CFBP, 0x00000000)
T7A50 000:503.908 - 0.010ms returns 0x00
T7A50 000:503.917   JLINK_SetBPEx(Addr = 0x20000000, Type = 0xFFFFFFF2)
T7A50 000:503.929 - 0.015ms returns 0x0000000A
T7A50 000:503.937 JLINK_Go()
T7A50 000:503.951   CPU_ReadMem(4 bytes @ 0xE0001000)
T7A50 000:504.307   CPU_WriteMem(4 bytes @ 0xE0001000)
T7A50 000:506.736 - 2.809ms
T7A50 000:506.755 JLINK_IsHalted()
T7A50 000:508.848   CPU_ReadMem(2 bytes @ 0x20000000)
T7A50 000:509.180 - 2.434ms returns TRUE
T7A50 000:509.197 JLINK_ReadReg(R15 (PC))
T7A50 000:509.207 - 0.013ms returns 0x20000000
T7A50 000:509.230 JLINK_ClrBPEx(BPHandle = 0x0000000A)
T7A50 000:509.237 - 0.011ms returns 0x00
T7A50 000:509.246 JLINK_ReadReg(R0)
T7A50 000:509.253 - 0.010ms returns 0x00000001
T7A50 000:509.265 JLINK_WriteReg(R0, 0x08000200)
T7A50 000:509.273 - 0.011ms returns 0x00
T7A50 000:509.281 JLINK_WriteReg(R1, 0x00000080)
T7A50 000:509.288 - 0.010ms returns 0x00
T7A50 000:509.297 JLINK_WriteReg(R2, 0x00000000)
T7A50 000:509.304 - 0.010ms returns 0x00
T7A50 000:509.312 JLINK_WriteReg(R3, 0x00000000)
T7A50 000:509.319 - 0.010ms returns 0x00
T7A50 000:509.327 JLINK_WriteReg(R4, 0x00000000)
T7A50 000:509.335 - 0.010ms returns 0x00
T7A50 000:509.343 JLINK_WriteReg(R5, 0x00000000)
T7A50 000:509.355 - 0.018ms returns 0x00
T7A50 000:509.367 JLINK_WriteReg(R6, 0x00000000)
T7A50 000:509.374 - 0.010ms returns 0x00
T7A50 000:509.382 JLINK_WriteReg(R7, 0x00000000)
T7A50 000:509.389 - 0.010ms returns 0x00
T7A50 000:509.397 JLINK_WriteReg(R8, 0x00000000)
T7A50 000:509.405 - 0.010ms returns 0x00
T7A50 000:509.413 JLINK_WriteReg(R9, 0x2000013C)
T7A50 000:509.420 - 0.010ms returns 0x00
T7A50 000:509.428 JLINK_WriteReg(R10, 0x00000000)
T7A50 000:509.436 - 0.010ms returns 0x00
T7A50 000:509.444 JLINK_WriteReg(R11, 0x00000000)
T7A50 000:509.451 - 0.010ms returns 0x00
T7A50 000:509.460 JLINK_WriteReg(R12, 0x00000000)
T7A50 000:509.467 - 0.010ms returns 0x00
T7A50 000:509.475 JLINK_WriteReg(R13 (SP), 0x20001000)
T7A50 000:509.483 - 0.011ms returns 0x00
T7A50 000:509.491 JLINK_WriteReg(R14, 0x20000001)
T7A50 000:509.498 - 0.010ms returns 0x00
T7A50 000:509.507 JLINK_WriteReg(R15 (PC), 0x2000007A)
T7A50 000:509.514 - 0.010ms returns 0x00
T7A50 000:509.522 JLINK_WriteReg(XPSR, 0x01000000)
T7A50 000:509.529 - 0.010ms returns 0x00
T7A50 000:509.538 JLINK_WriteReg(MSP, 0x20001000)
T7A50 000:509.545 - 0.010ms returns 0x00
T7A50 000:509.553 JLINK_WriteReg(PSP, 0x20001000)
T7A50 000:509.560 - 0.010ms returns 0x00
T7A50 000:509.569 JLINK_WriteReg(CFBP, 0x00000000)
T7A50 000:509.576 - 0.010ms returns 0x00
T7A50 000:509.585   JLINK_SetBPEx(Addr = 0x20000000, Type = 0xFFFFFFF2)
T7A50 000:509.596 - 0.015ms returns 0x0000000B
T7A50 000:509.605 JLINK_Go()
T7A50 000:509.618   CPU_ReadMem(4 bytes @ 0xE0001000)
T7A50 000:510.058   CPU_WriteMem(4 bytes @ 0xE0001000)
T7A50 000:512.791 - 3.203ms
T7A50 000:512.818 JLINK_IsHalted()
T7A50 000:513.215 - 0.409ms returns FALSE
T7A50 000:516.920 JLINK_IsHalted()
T7A50 000:519.155   CPU_ReadMem(2 bytes @ 0x20000000)
T7A50 000:519.590 - 2.682ms returns TRUE
T7A50 000:519.619 JLINK_ReadReg(R15 (PC))
T7A50 000:519.634 - 0.020ms returns 0x20000000
T7A50 000:519.647 JLINK_ClrBPEx(BPHandle = 0x0000000B)
T7A50 000:519.658 - 0.016ms returns 0x00
T7A50 000:519.673 JLINK_ReadReg(R0)
T7A50 000:519.683 - 0.015ms returns 0x00000000
T7A50 000:520.498 JLINK_WriteReg(R0, 0x08000280)
T7A50 000:520.521 - 0.029ms returns 0x00
T7A50 000:520.534 JLINK_WriteReg(R1, 0x00000080)
T7A50 000:520.544 - 0.015ms returns 0x00
T7A50 000:520.556 JLINK_WriteReg(R2, 0x00000000)
T7A50 000:520.567 - 0.015ms returns 0x00
T7A50 000:520.579 JLINK_WriteReg(R3, 0x00000000)
T7A50 000:520.589 - 0.015ms returns 0x00
T7A50 000:520.601 JLINK_WriteReg(R4, 0x00000000)
T7A50 000:520.611 - 0.015ms returns 0x00
T7A50 000:520.623 JLINK_WriteReg(R5, 0x00000000)
T7A50 000:520.633 - 0.015ms returns 0x00
T7A50 000:520.645 JLINK_WriteReg(R6, 0x00000000)
T7A50 000:520.655 - 0.015ms returns 0x00
T7A50 000:520.667 JLINK_WriteReg(R7, 0x00000000)
T7A50 000:520.678 - 0.015ms returns 0x00
T7A50 000:520.690 JLINK_WriteReg(R8, 0x00000000)
T7A50 000:520.700 - 0.015ms returns 0x00
T7A50 000:520.712 JLINK_WriteReg(R9, 0x2000013C)
T7A50 000:520.722 - 0.015ms returns 0x00
T7A50 000:520.734 JLINK_WriteReg(R10, 0x00000000)
T7A50 000:520.745 - 0.015ms returns 0x00
T7A50 000:520.757 JLINK_WriteReg(R11, 0x00000000)
T7A50 000:520.767 - 0.015ms returns 0x00
T7A50 000:520.779 JLINK_WriteReg(R12, 0x00000000)
T7A50 000:520.789 - 0.015ms returns 0x00
T7A50 000:520.802 JLINK_WriteReg(R13 (SP), 0x20001000)
T7A50 000:520.813 - 0.016ms returns 0x00
T7A50 000:520.825 JLINK_WriteReg(R14, 0x20000001)
T7A50 000:520.835 - 0.015ms returns 0x00
T7A50 000:520.847 JLINK_WriteReg(R15 (PC), 0x200000B0)
T7A50 000:520.857 - 0.029ms returns 0x00
T7A50 000:520.882 JLINK_WriteReg(XPSR, 0x01000000)
T7A50 000:520.893 - 0.021ms returns 0x00
T7A50 000:520.913 JLINK_WriteReg(MSP, 0x20001000)
T7A50 000:520.930 - 0.021ms returns 0x00
T7A50 000:520.940 JLINK_WriteReg(PSP, 0x20001000)
T7A50 000:520.947 - 0.010ms returns 0x00
T7A50 000:520.955 JLINK_WriteReg(CFBP, 0x00000000)
T7A50 000:520.962 - 0.010ms returns 0x00
T7A50 000:520.972   JLINK_SetBPEx(Addr = 0x20000000, Type = 0xFFFFFFF2)
T7A50 000:520.983 - 0.015ms returns 0x0000000C
T7A50 000:520.997 JLINK_Go()
T7A50 000:521.015   CPU_ReadMem(4 bytes @ 0xE0001000)
T7A50 000:521.360   CPU_WriteMem(4 bytes @ 0xE0001000)
T7A50 000:523.839 - 2.866ms
T7A50 000:523.890 JLINK_IsHalted()
T7A50 000:525.959   CPU_ReadMem(2 bytes @ 0x20000000)
T7A50 000:526.347 - 2.465ms returns TRUE
T7A50 000:526.364 JLINK_ReadReg(R15 (PC))
T7A50 000:526.373 - 0.013ms returns 0x20000000
T7A50 000:526.382 JLINK_ClrBPEx(BPHandle = 0x0000000C)
T7A50 000:526.390 - 0.011ms returns 0x00
T7A50 000:526.399 JLINK_ReadReg(R0)
T7A50 000:526.406 - 0.010ms returns 0x00000001
T7A50 000:526.417 JLINK_WriteReg(R0, 0x08000280)
T7A50 000:526.425 - 0.011ms returns 0x00
T7A50 000:526.433 JLINK_WriteReg(R1, 0x00000080)
T7A50 000:526.440 - 0.010ms returns 0x00
T7A50 000:526.449 JLINK_WriteReg(R2, 0x00000000)
T7A50 000:526.456 - 0.010ms returns 0x00
T7A50 000:526.464 JLINK_WriteReg(R3, 0x00000000)
T7A50 000:526.471 - 0.010ms returns 0x00
T7A50 000:526.480 JLINK_WriteReg(R4, 0x00000000)
T7A50 000:526.487 - 0.010ms returns 0x00
T7A50 000:526.495 JLINK_WriteReg(R5, 0x00000000)
T7A50 000:526.502 - 0.010ms returns 0x00
T7A50 000:526.511 JLINK_WriteReg(R6, 0x00000000)
T7A50 000:526.518 - 0.010ms returns 0x00
T7A50 000:526.526 JLINK_WriteReg(R7, 0x00000000)
T7A50 000:526.533 - 0.010ms returns 0x00
T7A50 000:526.541 JLINK_WriteReg(R8, 0x00000000)
T7A50 000:526.549 - 0.010ms returns 0x00
T7A50 000:526.557 JLINK_WriteReg(R9, 0x2000013C)
T7A50 000:526.564 - 0.010ms returns 0x00
T7A50 000:526.572 JLINK_WriteReg(R10, 0x00000000)
T7A50 000:526.580 - 0.010ms returns 0x00
T7A50 000:526.588 JLINK_WriteReg(R11, 0x00000000)
T7A50 000:526.595 - 0.010ms returns 0x00
T7A50 000:526.603 JLINK_WriteReg(R12, 0x00000000)
T7A50 000:526.611 - 0.010ms returns 0x00
T7A50 000:526.619 JLINK_WriteReg(R13 (SP), 0x20001000)
T7A50 000:526.626 - 0.011ms returns 0x00
T7A50 000:526.635 JLINK_WriteReg(R14, 0x20000001)
T7A50 000:526.642 - 0.010ms returns 0x00
T7A50 000:526.650 JLINK_WriteReg(R15 (PC), 0x2000007A)
T7A50 000:526.657 - 0.010ms returns 0x00
T7A50 000:526.666 JLINK_WriteReg(XPSR, 0x01000000)
T7A50 000:526.673 - 0.010ms returns 0x00
T7A50 000:526.681 JLINK_WriteReg(MSP, 0x20001000)
T7A50 000:526.689 - 0.010ms returns 0x00
T7A50 000:526.697 JLINK_WriteReg(PSP, 0x20001000)
T7A50 000:526.704 - 0.010ms returns 0x00
T7A50 000:526.712 JLINK_WriteReg(CFBP, 0x00000000)
T7A50 000:526.720 - 0.010ms returns 0x00
T7A50 000:526.729   JLINK_SetBPEx(Addr = 0x20000000, Type = 0xFFFFFFF2)
T7A50 000:526.740 - 0.015ms returns 0x0000000D
T7A50 000:526.748 JLINK_Go()
T7A50 000:526.761   CPU_ReadMem(4 bytes @ 0xE0001000)
T7A50 000:527.159   CPU_WriteMem(4 bytes @ 0xE0001000)
T7A50 000:529.697 - 2.957ms
T7A50 000:529.713 JLINK_IsHalted()
T7A50 000:530.064 - 0.359ms returns FALSE
T7A50 000:532.870 JLINK_IsHalted()
T7A50 000:534.948   CPU_ReadMem(2 bytes @ 0x20000000)
T7A50 000:535.322 - 2.460ms returns TRUE
T7A50 000:535.338 JLINK_ReadReg(R15 (PC))
T7A50 000:535.348 - 0.013ms returns 0x20000000
T7A50 000:535.356 JLINK_ClrBPEx(BPHandle = 0x0000000D)
T7A50 000:535.364 - 0.011ms returns 0x00
T7A50 000:535.372 JLINK_ReadReg(R0)
T7A50 000:535.379 - 0.010ms returns 0x00000000
T7A50 000:535.942 JLINK_WriteReg(R0, 0x08000300)
T7A50 000:535.957 - 0.019ms returns 0x00
T7A50 000:535.966 JLINK_WriteReg(R1, 0x00000080)
T7A50 000:535.973 - 0.010ms returns 0x00
T7A50 000:535.982 JLINK_WriteReg(R2, 0x00000000)
T7A50 000:535.989 - 0.010ms returns 0x00
T7A50 000:535.997 JLINK_WriteReg(R3, 0x00000000)
T7A50 000:536.004 - 0.010ms returns 0x00
T7A50 000:536.013 JLINK_WriteReg(R4, 0x00000000)
T7A50 000:536.020 - 0.010ms returns 0x00
T7A50 000:536.028 JLINK_WriteReg(R5, 0x00000000)
T7A50 000:536.035 - 0.010ms returns 0x00
T7A50 000:536.044 JLINK_WriteReg(R6, 0x00000000)
T7A50 000:536.051 - 0.010ms returns 0x00
T7A50 000:536.059 JLINK_WriteReg(R7, 0x00000000)
T7A50 000:536.066 - 0.010ms returns 0x00
T7A50 000:536.074 JLINK_WriteReg(R8, 0x00000000)
T7A50 000:536.082 - 0.010ms returns 0x00
T7A50 000:536.090 JLINK_WriteReg(R9, 0x2000013C)
T7A50 000:536.102 - 0.017ms returns 0x00
T7A50 000:536.113 JLINK_WriteReg(R10, 0x00000000)
T7A50 000:536.120 - 0.010ms returns 0x00
T7A50 000:536.128 JLINK_WriteReg(R11, 0x00000000)
T7A50 000:536.135 - 0.010ms returns 0x00
T7A50 000:536.144 JLINK_WriteReg(R12, 0x00000000)
T7A50 000:536.151 - 0.010ms returns 0x00
T7A50 000:536.159 JLINK_WriteReg(R13 (SP), 0x20001000)
T7A50 000:536.167 - 0.011ms returns 0x00
T7A50 000:536.175 JLINK_WriteReg(R14, 0x20000001)
T7A50 000:536.182 - 0.010ms returns 0x00
T7A50 000:536.191 JLINK_WriteReg(R15 (PC), 0x200000B0)
T7A50 000:536.198 - 0.010ms returns 0x00
T7A50 000:536.207 JLINK_WriteReg(XPSR, 0x01000000)
T7A50 000:536.214 - 0.011ms returns 0x00
T7A50 000:536.223 JLINK_WriteReg(MSP, 0x20001000)
T7A50 000:536.230 - 0.010ms returns 0x00
T7A50 000:536.238 JLINK_WriteReg(PSP, 0x20001000)
T7A50 000:536.245 - 0.010ms returns 0x00
T7A50 000:536.254 JLINK_WriteReg(CFBP, 0x00000000)
T7A50 000:536.261 - 0.010ms returns 0x00
T7A50 000:536.270   JLINK_SetBPEx(Addr = 0x20000000, Type = 0xFFFFFFF2)
T7A50 000:536.281 - 0.015ms returns 0x0000000E
T7A50 000:536.290 JLINK_Go()
T7A50 000:536.303   CPU_ReadMem(4 bytes @ 0xE0001000)
T7A50 000:536.657   CPU_WriteMem(4 bytes @ 0xE0001000)
T7A50 000:539.037 - 2.757ms
T7A50 000:539.056 JLINK_IsHalted()
T7A50 000:541.232   CPU_ReadMem(2 bytes @ 0x20000000)
T7A50 000:541.595 - 2.547ms returns TRUE
T7A50 000:541.611 JLINK_ReadReg(R15 (PC))
T7A50 000:541.620 - 0.013ms returns 0x20000000
T7A50 000:541.629 JLINK_ClrBPEx(BPHandle = 0x0000000E)
T7A50 000:541.637 - 0.011ms returns 0x00
T7A50 000:541.646 JLINK_ReadReg(R0)
T7A50 000:541.653 - 0.010ms returns 0x00000001
T7A50 000:541.664 JLINK_WriteReg(R0, 0x08000300)
T7A50 000:541.672 - 0.011ms returns 0x00
T7A50 000:541.681 JLINK_WriteReg(R1, 0x00000080)
T7A50 000:541.688 - 0.010ms returns 0x00
T7A50 000:541.696 JLINK_WriteReg(R2, 0x00000000)
T7A50 000:541.703 - 0.010ms returns 0x00
T7A50 000:541.712 JLINK_WriteReg(R3, 0x00000000)
T7A50 000:541.719 - 0.010ms returns 0x00
T7A50 000:541.727 JLINK_WriteReg(R4, 0x00000000)
T7A50 000:541.734 - 0.010ms returns 0x00
T7A50 000:541.743 JLINK_WriteReg(R5, 0x00000000)
T7A50 000:541.750 - 0.010ms returns 0x00
T7A50 000:541.758 JLINK_WriteReg(R6, 0x00000000)
T7A50 000:541.765 - 0.010ms returns 0x00
T7A50 000:541.774 JLINK_WriteReg(R7, 0x00000000)
T7A50 000:541.781 - 0.010ms returns 0x00
T7A50 000:541.789 JLINK_WriteReg(R8, 0x00000000)
T7A50 000:541.796 - 0.010ms returns 0x00
T7A50 000:541.805 JLINK_WriteReg(R9, 0x2000013C)
T7A50 000:541.812 - 0.010ms returns 0x00
T7A50 000:541.820 JLINK_WriteReg(R10, 0x00000000)
T7A50 000:541.827 - 0.010ms returns 0x00
T7A50 000:541.836 JLINK_WriteReg(R11, 0x00000000)
T7A50 000:541.843 - 0.010ms returns 0x00
T7A50 000:541.851 JLINK_WriteReg(R12, 0x00000000)
T7A50 000:541.862 - 0.016ms returns 0x00
T7A50 000:541.883 JLINK_WriteReg(R13 (SP), 0x20001000)
T7A50 000:541.895 - 0.016ms returns 0x00
T7A50 000:541.904 JLINK_WriteReg(R14, 0x20000001)
T7A50 000:541.911 - 0.010ms returns 0x00
T7A50 000:541.920 JLINK_WriteReg(R15 (PC), 0x2000007A)
T7A50 000:541.927 - 0.010ms returns 0x00
T7A50 000:541.935 JLINK_WriteReg(XPSR, 0x01000000)
T7A50 000:541.942 - 0.010ms returns 0x00
T7A50 000:541.951 JLINK_WriteReg(MSP, 0x20001000)
T7A50 000:541.958 - 0.010ms returns 0x00
T7A50 000:541.966 JLINK_WriteReg(PSP, 0x20001000)
T7A50 000:541.974 - 0.010ms returns 0x00
T7A50 000:541.982 JLINK_WriteReg(CFBP, 0x00000000)
T7A50 000:541.989 - 0.010ms returns 0x00
T7A50 000:541.998   JLINK_SetBPEx(Addr = 0x20000000, Type = 0xFFFFFFF2)
T7A50 000:542.010 - 0.015ms returns 0x0000000F
T7A50 000:542.018 JLINK_Go()
T7A50 000:542.031   CPU_ReadMem(4 bytes @ 0xE0001000)
T7A50 000:542.422   CPU_WriteMem(4 bytes @ 0xE0001000)
T7A50 000:544.995 - 2.994ms
T7A50 000:545.027 JLINK_IsHalted()
T7A50 000:545.399 - 0.382ms returns FALSE
T7A50 000:549.891 JLINK_IsHalted()
T7A50 000:552.138   CPU_ReadMem(2 bytes @ 0x20000000)
T7A50 000:552.533 - 2.655ms returns TRUE
T7A50 000:552.559 JLINK_ReadReg(R15 (PC))
T7A50 000:552.578 - 0.028ms returns 0x20000000
T7A50 000:552.595 JLINK_ClrBPEx(BPHandle = 0x0000000F)
T7A50 000:552.607 - 0.016ms returns 0x00
T7A50 000:552.619 JLINK_ReadReg(R0)
T7A50 000:552.630 - 0.015ms returns 0x00000000
T7A50 000:553.428 JLINK_WriteReg(R0, 0x08000380)
T7A50 000:553.450 - 0.028ms returns 0x00
T7A50 000:553.463 JLINK_WriteReg(R1, 0x00000080)
T7A50 000:553.474 - 0.015ms returns 0x00
T7A50 000:553.486 JLINK_WriteReg(R2, 0x00000000)
T7A50 000:553.496 - 0.015ms returns 0x00
T7A50 000:553.508 JLINK_WriteReg(R3, 0x00000000)
T7A50 000:553.518 - 0.015ms returns 0x00
T7A50 000:553.530 JLINK_WriteReg(R4, 0x00000000)
T7A50 000:553.540 - 0.015ms returns 0x00
T7A50 000:553.552 JLINK_WriteReg(R5, 0x00000000)
T7A50 000:553.562 - 0.025ms returns 0x00
T7A50 000:553.583 JLINK_WriteReg(R6, 0x00000000)
